
**** 12/23/21 19:58:21 ****** PSpice 17.2.0 (March 2016) ****** ID# 0 ********

 ** Profile: "SCHEMATIC1-sim_test"  [ G:\My Documents\COEN_490\test4-pspicefiles\schematic1\sim_test.sim ] 


 ****     CIRCUIT DESCRIPTION


******************************************************************************




** Creating circuit file "sim_test.cir" 
** WARNING: THIS AUTOMATICALLY GENERATED FILE MAY BE OVERWRITTEN BY SUBSEQUENT SIMULATIONS

*Libraries: 
* Profile Libraries :
* Local Libraries :
* From [PSPICE NETLIST] section of C:\Users\v_eaulie\cdssetup\OrCAD_PSpice\17.2.0\PSpice.ini file:
.lib "nom.lib" 

*Analysis directives: 
.TRAN  0 10000ns 0 
.OPTIONS ADVCONV
.PROBE64 V(alias(*)) I(alias(*)) W(alias(*)) D(alias(*)) NOISE(alias(*)) 
.INC "..\SCHEMATIC1.net" 



**** INCLUDING SCHEMATIC1.net ****
* source TEST4
X_U1         N00510 N00809 N17203 LM7805C
X_U2         N00455 N00802 N71220 LM7905C
C_C3         0 N00809  1uF  TC=0,0 
C_C4         N00802 0  1uF  TC=0,0 
X_U3         N00510 N09399 N64364 LM7805C
C_C5         0 N09399  100nF  TC=0,0 
C_C6         0 N00510  2200uF  TC=0,0 
X_LED1         N09399 N14440 D1N5765
X_LED2         N00809 N125961 D1N5765
X_LED3         0 N126211 D1N5765
R_R3         0 N14440  470 TC=0,0 
R_R4         0 N125961  470 TC=0,0 
R_R5         N00802 N126211  470 TC=0,0 
C_C8         0 N09399  470uF  TC=0,0 
D_D1         N00809 N00510 D1N4007 
D_D2         N09399 N00510 D1N4007 
D_D3         N00455 N00802 D1N4007 
X_R10         0 0 N17203 POT PARAMS: SET=0.82 VALUE=10
C_C9         0 N09399  10nF  TC=0,0 
C_C16         0 N00809  100nF  TC=0,0 
C_C17         N00802 0  100nF  TC=0,0 
C_C18         0 N00809  10nF  TC=0,0 
C_C19         N00802 0  10nF  TC=0,0 
C_C23         0 N09399  1uF  TC=0,0 
V_V1         N00510 N00455 20V
R_R18         0 N52405  100k TC=0,0 
R_R19         N82785 0  100k TC=0,0 
M_PMOS         N52752 N52405 N89937 N89937 M2N6804
V_V2         N52752 N52748 25Vdc
C_C27         0 N52752  220uF  TC=0,0 
C_C28         N52748 0  220uF  TC=0,0 
R_R22         0 N00510  1M TC=0,0 
R_R23         N00455 0  1M TC=0,0 
R_R24         0 N88829  1k TC=0,0 
R_R25         0 N88871  1k TC=0,0 
R_R30         0 N64364  10 TC=0,0 
C_C30         N00455 N00510  100nF  TC=0,0 
C_C31         N00455 N00510  1uF  TC=0,0 
C_C29         N00455 N00510  10nF  TC=0,0 
C_C25         N00802 0  470uF  TC=0,0 
C_C32         0 N00809  470uF  TC=0,0 
C_C2         N00455 0  1100uF  TC=0,0 
C_C33         0 N00510  1100uF  TC=0,0 
R_R31         N17203 N00809  1k TC=0,0 
R_R32         N00802 N71220  1k TC=0,0 
R_R33         N71220 0  10 TC=0,0 
R_R34         N64364 N09399  1k TC=0,0 
D_D9         N52405 N89937 D1N4678 
C_C34         0 N88871  220uF  TC=0,0 
C_C35         N88829 0  220uF  TC=0,0 
X_U4         N89937 N88871 0 LM7805C
X_U5         N89933 N88829 0 LM7905C
M_M1         N52748 N82785 N89933 N89933 M2N6802
D_D8         N89933 N82785 D1N4678 

**** RESUMING sim_test.cir ****
.END

**** 12/23/21 19:58:21 ****** PSpice 17.2.0 (March 2016) ****** ID# 0 ********

 ** Profile: "SCHEMATIC1-sim_test"  [ G:\My Documents\COEN_490\test4-pspicefiles\schematic1\sim_test.sim ] 


 ****     Diode MODEL PARAMETERS


******************************************************************************




               D1N4007         D1N4678         D1N4001         X_LED1.DLOW     
          IS   14.110000E-09  629.965300E-12   14.110000E-09    1.000000E-15 
           N    1.984           2.15352         1.984           2.15         
         ISR                    5.577980E-06                                 
          NR                    4.00204                                      
         IKF   94.81                           94.81                         
          BV    1.500000E+03    1.986          75               5            
         IBV   10.000000E-06     .066506       10.000000E-06  100.000000E-06 
          RS     .03389         1.475356E-06     .03389       100            
          TT    5.700000E-06  193.900000E-09    5.700000E-06   10.000000E-09 
         CJO   25.890000E-12  170.000000E-12   25.890000E-12   82.852370E-12 
          VJ     .3245           .75             .3245          1.207694     
           M     .44             .3333           .44             .405311     
          FC                                                     .434001     
          EG                                                    1.664        
         XTI                                                   10.78         


               X_LED1.DHIGH    X_LED2.DLOW     X_LED2.DHIGH    X_LED3.DLOW     
          IS    9.000000E-15    1.000000E-15    9.000000E-15    1.000000E-15 
           N    1.2             2.15            1.2             2.15         
          BV   99.999000E+12    5              99.999000E+12    5            
         IBV    1.000000E-03  100.000000E-06    1.000000E-03  100.000000E-06 
          RS     .3           100                .3           100            
          TT                   10.000000E-09                   10.000000E-09 
         CJO                   82.852370E-12                   82.852370E-12 
          VJ                    1.207694                        1.207694     
           M                     .405311                         .405311     
          FC                     .434001                         .434001     
          EG     .1             1.664            .1             1.664        
         XTI   -3.84           10.78           -3.84           10.78         


               X_LED3.DHIGH    X_U1.x1.Dlim    X_U1.x1.Dz      X_U2.x1.Dlim    
          IS    9.000000E-15   10.000000E-15   50.000000E-15   10.000000E-15 
           N    1.2                                                          
          BV   99.999000E+12                    7.11                         
         IBV    1.000000E-03                   50.000000E-09                 
          RS     .3                             3                            
          VJ                     .7                              .7          
          EG     .1                                                          
         XTI   -3.84                                                         


               X_U2.x1.Dz      X_U3.x1.Dlim    X_U3.x1.Dz      X_U4.x1.Dlim    
          IS   50.000000E-15   10.000000E-15   50.000000E-15   10.000000E-15 
          BV    7.11                            7.11                         
         IBV   50.000000E-09                   50.000000E-09                 
          RS    3                               3                            
          VJ                     .7                              .7          


               X_U4.x1.Dz      X_U5.x1.Dlim    X_U5.x1.Dz      
          IS   50.000000E-15   10.000000E-15   50.000000E-15 
          BV    7.11                            7.11         
         IBV   50.000000E-09                   50.000000E-09 
          RS    3                               3            
          VJ                     .7                          


**** 12/23/21 19:58:21 ****** PSpice 17.2.0 (March 2016) ****** ID# 0 ********

 ** Profile: "SCHEMATIC1-sim_test"  [ G:\My Documents\COEN_490\test4-pspicefiles\schematic1\sim_test.sim ] 


 ****     BJT MODEL PARAMETERS


******************************************************************************




               X_U1.x1.Npn1    X_U2.x1.Npn1    X_U2.x1.Pnp1    X_U3.x1.Npn1    
               NPN             NPN             PNP             NPN             
       LEVEL    1               1               1               1            
          IS   10.000000E-15   10.000000E-15   10.000000E-15   10.000000E-15 
          BF   50              50             250              50            
          NF    1               1               1               1            
          BR    1               1               1               1            
          NR    1               1               1               1            
         ISS    0               0               0               0            
          RE    0               0               0               0            
          RC    0               0               0               0            
         CJE    0               0               0               0            
         VJE     .75             .75             .75             .75         
         CJC    0               0               0               0            
         VJC     .75             .75             .75             .75         
         MJC     .33             .33             .33             .33         
        XCJC    1               1               1               1            
         CJS    0               0               0               0            
         VJS     .75             .75             .75             .75         
          KF    0               0               0               0            
          AF    1               1               1               1            
          CN    2.42            2.42            2.2             2.42         
           D     .87             .87             .52             .87         


               X_U4.x1.Npn1    X_U5.x1.Npn1    X_U5.x1.Pnp1    
               NPN             NPN             PNP             
       LEVEL    1               1               1            
          IS   10.000000E-15   10.000000E-15   10.000000E-15 
          BF   50              50             250            
          NF    1               1               1            
          BR    1               1               1            
          NR    1               1               1            
         ISS    0               0               0            
          RE    0               0               0            
          RC    0               0               0            
         CJE    0               0               0            
         VJE     .75             .75             .75         
         CJC    0               0               0            
         VJC     .75             .75             .75         
         MJC     .33             .33             .33         
        XCJC    1               1               1            
         CJS    0               0               0            
         VJS     .75             .75             .75         
          KF    0               0               0            
          AF    1               1               1            
          CN    2.42            2.42            2.2          
           D     .87             .87             .52         


**** 12/23/21 19:58:21 ****** PSpice 17.2.0 (March 2016) ****** ID# 0 ********

 ** Profile: "SCHEMATIC1-sim_test"  [ G:\My Documents\COEN_490\test4-pspicefiles\schematic1\sim_test.sim ] 


 ****     MOSFET MODEL PARAMETERS


******************************************************************************




               M2N6804         M2N6802         
               PMOS            NMOS            
       LEVEL    3               3            
           L    2.000000E-06    2.000000E-06 
           W    1.2              .49         
         VTO   -3.68            3.101        
          KP   10.460000E-06   20.880000E-06 
       GAMMA    0               0            
         PHI     .6              .6          
      LAMBDA    0               0            
          RD     .06652         1.163        
          RS     .153            .1084       
          RG    4.931            .824        
         RDS  444.400000E+06    2.222000E+06 
          IS    5.477000E-12    1.823000E-12 
          JS    0               0            
           N    3                            
          PB     .8              .8          
        PBSW     .8              .8          
         CBD    1.281000E-09  732.000000E-12 
          CJ    0               0            
        CJSW    0               0            
          TT  295.000000E-09    2.060000E-06 
        CGSO    1.798000E-09    1.725000E-09 
        CGDO  134.900000E-12  136.700000E-12 
        CGBO    0               0            
         TOX  100.000000E-09  100.000000E-09 
          XJ    0               0            
          UO  300                            
       UCRIT   10.000000E+03   10.000000E+03 
       DELTA    0               0            
         ETA    0               0            
      DIOMOD    1               1            
         VFB    0               0            
        LETA    0               0            
        WETA    0               0            
          U0    0               0            
        TEMP    0               0            
         VDD    5               5            
       XPART    0               0            


**** 12/23/21 19:58:21 ****** PSpice 17.2.0 (March 2016) ****** ID# 0 ********

 ** Profile: "SCHEMATIC1-sim_test"  [ G:\My Documents\COEN_490\test4-pspicefiles\schematic1\sim_test.sim ] 


 ****     Resistor MODEL PARAMETERS


******************************************************************************




               X_U2.x1.Rbg1    X_U5.x1.Rbg1    
           R    1               1            
         TC1   81.300000E-06   81.300000E-06 


**** 12/23/21 19:58:21 ****** PSpice 17.2.0 (March 2016) ****** ID# 0 ********

 ** Profile: "SCHEMATIC1-sim_test"  [ G:\My Documents\COEN_490\test4-pspicefiles\schematic1\sim_test.sim ] 


 ****     Voltage Controlled Switch MODEL PARAMETERS


******************************************************************************




               X_U1.x1.Sbg1    X_U2.x1.Sbg1    X_U3.x1.Sbg1    X_U4.x1.Sbg1    
         RON    1               1               1               1            
        ROFF    1.000000E+06    1.000000E+06    1.000000E+06    1.000000E+06 
         VON    3.7             3.7             3.7             3.7          
        VOFF    3               3               3               3            


               X_U5.x1.Sbg1    
         RON    1            
        ROFF    1.000000E+06 
         VON    3.7          
        VOFF    3            


**** 12/23/21 19:58:21 ****** PSpice 17.2.0 (March 2016) ****** ID# 0 ********

 ** Profile: "SCHEMATIC1-sim_test"  [ G:\My Documents\COEN_490\test4-pspicefiles\schematic1\sim_test.sim ] 


 ****     INITIAL TRANSIENT SOLUTION       TEMPERATURE =   27.000 DEG C


******************************************************************************



 NODE   VOLTAGE     NODE   VOLTAGE     NODE   VOLTAGE     NODE   VOLTAGE


(N00455)  -10.0000 (N00510)   10.0000 (N00802)   -5.0788 (N00809)    5.0787     

(N09399)    5.0966 (N14440)    3.5440 (N17203)     .0820 (N52405)    2.7961     

(N52748)  -18.8090 (N52752)    6.1911 (N64364)     .0999 (N71220)    -.0612     

(N82785)  -16.4040 (N88829)   -5.0224 (N88871)    3.1502 (N89933)  -18.2340     

(N89937)    4.5719 (N125961)    3.5262                   (N126211)   -1.5525    

(X_LED1.4)    4.2447                  (X_LED2.4)    4.2269                      

(X_LED3.4)    -.8518                  (X_U1.x1.4)    6.4092                     

(X_U1.x1.5)    6.3961                 (X_U1.x1.6)    5.7520                     

(X_U1.x1.7)    5.0835                 (X_U1.x1.8)    5.0788                     

(X_U1.x1.9)    5.0788                 (X_U2.x1.4)   -8.6836                     

(X_U2.x1.5)   -8.6953                 (X_U2.x1.6)   -9.3363                     

(X_U2.x1.7)   -9.9982                 (X_U2.x1.8)   -5.0790                     

(X_U2.x1.9)   -5.0790                 (X_U3.x1.4)    6.4273                     

(X_U3.x1.5)    6.4142                 (X_U3.x1.6)    5.7700                     

(X_U3.x1.7)    5.1015                 (X_U3.x1.8)    5.0967                     

(X_U3.x1.9)    5.0967                 (X_U4.x1.4)    4.4347                     

(X_U4.x1.5)    4.4261                 (X_U4.x1.6)    3.7930                     

(X_U4.x1.7)    3.1520                 (X_U4.x1.8)    3.1502                     

(X_U4.x1.9)    3.1502                 (X_U5.x1.4)  -16.9530                     

(X_U5.x1.5)  -16.9610                 (X_U5.x1.6)  -17.5940                     

(X_U5.x1.7)  -18.2330                 (X_U5.x1.8)   -5.0225                     

(X_U5.x1.9)   -5.0225                 (X_U1.x1.55)    5.0835                    

(X_U1.x1.56)    5.0835                (X_U2.x1.50)   -9.9637                    

(X_U2.x1.51)   -9.9637                (X_U2.x1.52)   -9.3403                    

(X_U2.x1.53)   -9.7000                (X_U2.x1.54)   -8.6953                    

(X_U3.x1.55)    5.1015                (X_U3.x1.56)    5.1015                    

(X_U4.x1.55)    3.1520                (X_U4.x1.56)    3.1520                    

(X_U5.x1.50)  -12.3580                (X_U5.x1.51)  -18.1650                    

(X_U5.x1.52)  -17.5410                (X_U5.x1.53)  -17.9340                    

(X_U5.x1.54)  -16.9610                (X_U1.x1.100)    7.4000                   

(X_U1.x1.101)    3.7004               (X_U1.x1.102)    9.9180                   

(X_U1.x1.105)    6.3273               (X_U1.x1.106)    6.3273                   

(X_U1.x1.107)    1.0000               (X_U1.x1.108)    8.9180                   

(X_U1.x1.200) 1665.0000               (X_U2.x1.100)   -7.4000                   

(X_U2.x1.101)   -3.7026               (X_U2.x1.102)   -9.9388                   

(X_U2.x1.105)   -1.3164               (X_U2.x1.106)   -1.3164                   

(X_U2.x1.107)   -1.0000               (X_U2.x1.108)   -8.9388                   

(X_U2.x1.200) 1660.0000               (X_U3.x1.100)    7.4000                   

(X_U3.x1.101)    3.7004               (X_U3.x1.102)    9.9001                   

(X_U3.x1.105)    6.3274               (X_U3.x1.106)    6.3274                   

(X_U3.x1.107)    1.0000               (X_U3.x1.108)    8.9001                   

(X_U3.x1.200) 1665.0000               (X_U4.x1.100)    7.4000                   

(X_U4.x1.101)    3.7001               (X_U4.x1.102)    4.5719                   

(X_U4.x1.105) 3080.0000               (X_U4.x1.106)    4.4347                   

(X_U4.x1.107)    1.0000               (X_U4.x1.108)    3.5719                   

(X_U4.x1.200) 1665.0000               (X_U5.x1.100)   -7.4000                   

(X_U5.x1.101)   -3.7061               (X_U5.x1.102)  -18.2340                   

(X_U5.x1.105)   -1.2810               (X_U5.x1.106)   -1.2810                   

(X_U5.x1.107)   -1.0000               (X_U5.x1.108)  -17.2340                   

(X_U5.x1.200) 1660.0000               (X_U2.x1.Imon)   -5.0788                  

(X_U5.x1.Imon)   -5.0224              




    VOLTAGE SOURCE CURRENTS
    NAME         CURRENT

    V_V1        -1.000E+04
    V_V2        -6.295E-03
    X_U1.x1.Vbg  -3.700E+00
    X_U1.x1.Vgainf  -1.665E+03
    X_U1.x1.Vl1   2.601E-12
    X_U1.x1.Vl2   5.337E-12
    X_U2.x1.Vbg   3.697E+00
    X_U2.x1.Vgainf  -1.660E+03
    X_U2.x1.Vl1   7.632E-12
    X_U2.x1.Vl2   3.264E-13
    X_U2.x1.Vmon  -1.252E-02
    X_U2.x1.Veset   1.121E-08
    X_U3.x1.Vbg  -3.700E+00
    X_U3.x1.Vgainf  -1.665E+03
    X_U3.x1.Vl1   2.583E-12
    X_U3.x1.Vl2   5.337E-12
    X_U4.x1.Vbg  -3.700E+00
    X_U4.x1.Vgainf  -1.665E+03
    X_U4.x1.Vl1  -3.076E+00
    X_U4.x1.Vl2   3.445E-12
    X_U5.x1.Vbg   3.694E+00
    X_U5.x1.Vgainf  -1.660E+03
    X_U5.x1.Vl1   1.596E-11
    X_U5.x1.Vl2   2.910E-13
    X_U5.x1.Vmon  -5.022E-03
    X_U5.x1.Veset   3.924E-08

    TOTAL POWER DISSIPATION   1.40E+07  WATTS



